
T1E04 000:131 SEGGER J-Link V6.00e Log File (0004ms, 0039ms total)
T1E04 000:131 DLL Compiled: Aug  4 2016 09:37:38 (0004ms, 0039ms total)
T1E04 000:131 Logging started @ 2017-05-26 11:02 (0004ms, 0039ms total)
T1E04 000:135 JLINK_SetWarnOutHandler(...) (0000ms, 0039ms total)
T1E04 000:135 JLINK_OpenEx(...)
Firmware: J-Link V9 compiled Aug  3 2016 18:50:44
Hardware: V9.40
S/N: 59404929
Feature(s): RDI, GDB, FlashDL, FlashBP, JFlash  returns O.K. (0031ms, 0070ms total)
T1E04 000:166 JLINK_SetErrorOutHandler(...) (0000ms, 0070ms total)
T1E04 000:166 JLINK_ExecCommand("ProjectFile = "E:\liukun\work\智能硬件\软硬件\云台\俄版云台\SimpleBGC32- 开源三轴无刷云台算法完全解说\SimpleBGC\BGC32\source\USER\JLinkSettings.ini"", ...).   returns 0x00 (0115ms, 0185ms total)
T1E04 000:283 JLINK_ExecCommand("Device = STM32F103VE", ...). Device "STM32F103VE" selected.  returns 0x00 (0003ms, 0188ms total)
T1E04 000:286 JLINK_ExecCommand("DisableConnectionTimeout", ...).   returns 0x01 (0000ms, 0188ms total)
T1E04 000:286 JLINK_GetHardwareVersion()  returns 0x16F30 (0000ms, 0188ms total)
T1E04 000:286 JLINK_GetDLLVersion()  returns 60005 (0000ms, 0188ms total)
T1E04 000:286 JLINK_GetFirmwareString(...) (0000ms, 0188ms total)
T1E04 000:291 JLINK_GetDLLVersion()  returns 60005 (0000ms, 0188ms total)
T1E04 000:291 JLINK_GetCompileDateTime() (0000ms, 0188ms total)
T1E04 000:293 JLINK_GetFirmwareString(...) (0000ms, 0188ms total)
T1E04 000:294 JLINK_GetHardwareVersion()  returns 0x16F30 (0000ms, 0188ms total)
T1E04 000:307 JLINK_TIF_Select(JLINKARM_TIF_SWD)  returns 0x00 (0004ms, 0192ms total)
T1E04 000:311 JLINK_SetSpeed(5000) (0001ms, 0193ms total)
T1E04 000:312 JLINK_GetId() >0x108 TIF>Found SWD-DP with ID 0x1BA01477 >0x0D TIF> >0x28 TIF> >0x0D TIF> >0x28 TIF> >0x0D TIF> >0x28 TIF> >0x0D TIF> >0x28 TIF> >0x0D TIF> >0x21 TIF> >0x0D TIF> >0x28 TIF> >0x0D TIF> >0x28 TIF> >0x0D TIF> >0x28 TIF> >0x0D TIF> >0x21 TIF> >0x0D TIF> >0x21 TIF> >0x0D TIF> >0x28 TIF> >0x0D TIF> >0x21 TIF> >0x0D TIF> >0x21 TIF> >0x0D TIF> >0x28 TIF> >0x0D TIF> >0x21 TIF> >0x0D TIF> >0x21 TIF> >0x0D TIF> >0x28 TIF> >0x0D TIF> >0x21 TIF> >0x0D TIF> >0x21 TIF> >0x0D TIF>
 >0x28 TIF> >0x0D TIF> >0x21 TIF> >0x0D TIF> >0x21 TIF> >0x0D TIF> >0x28 TIF> >0x0D TIF> >0x21 TIF> >0x0D TIF> >0x21 TIF> >0x0D TIF> >0x28 TIF> >0x0D TIF> >0x21 TIF> >0x0D TIF> >0x21 TIF> >0x108 TIF>Found SWD-DP with ID 0x1BA01477 >0x0D TIF> >0x28 TIF> >0x0D TIF> >0x28 TIF> >0x0D TIF> >0x28 TIF> >0x0D TIF> >0x28 TIF> >0x0D TIF> >0x21 TIF> >0x0D TIF> >0x28 TIF> >0x0D TIF> >0x28 TIF> >0x0D TIF> >0x21 TIF> >0x0D TIF> >0x21 TIF> >0x0D TIF> >0x21 TIF>AP-IDR: 0x14770011, Type: AHB-AP >0x0D TIF> >0x28 TIF>
 >0x0D TIF> >0x28 TIF> >0x0D TIF> >0x28 TIF> >0x0D TIF> >0x21 TIF> >0x0D TIF> >0x21 TIF> >0x0D TIF> >0x28 TIF> >0x0D TIF> >0x21 TIF> >0x0D TIF> >0x21 TIF>Found Cortex-M3 r1p1, Little endian. -- CPU_ReadMem(4 bytes @ 0xE000EDF0) -- CPU_ReadMem(4 bytes @ 0xE0002000)FPUnit: 6 code (BP) slots and 2 literal slots -- CPU_ReadMem(4 bytes @ 0xE000EDFC) -- CPU_ReadMem(4 bytes @ 0xE0001000) -- CPU_WriteMem(4 bytes @ 0xE0001000) -- CPU_ReadMem(4 bytes @ 0xE000ED88) -- CPU_WriteMem(4 bytes @ 0xE000ED88)
 -- CPU_ReadMem(4 bytes @ 0xE000ED88) -- CPU_WriteMem(4 bytes @ 0xE000ED88)CoreSight components:ROMTbl 0 @ E00FF000 -- CPU_ReadMem(16 bytes @ 0xE00FF000) -- CPU_ReadMem(16 bytes @ 0xE000EFF0) -- CPU_ReadMem(16 bytes @ 0xE000EFE0)ROMTbl 0 [0]: FFF0F000, CID: B105E00D, PID: 001BB000 SCS -- CPU_ReadMem(16 bytes @ 0xE0001FF0) -- CPU_ReadMem(16 bytes @ 0xE0001FE0)ROMTbl 0 [1]: FFF02000, CID: B105E00D, PID: 001BB002 DWT -- CPU_ReadMem(16 bytes @ 0xE0002FF0) -- CPU_ReadMem(16 bytes @ 0xE0002FE0)
ROMTbl 0 [2]: FFF03000, CID: B105E00D, PID: 000BB003 FPB -- CPU_ReadMem(16 bytes @ 0xE0000FF0) -- CPU_ReadMem(16 bytes @ 0xE0000FE0)ROMTbl 0 [3]: FFF01000, CID: B105E00D, PID: 001BB001 ITM -- CPU_ReadMem(16 bytes @ 0xE00FF010) -- CPU_ReadMem(16 bytes @ 0xE0040FF0) -- CPU_ReadMem(16 bytes @ 0xE0040FE0)ROMTbl 0 [4]: FFF41000, CID: B105900D, PID: 001BB923 TPIU-Lite -- CPU_ReadMem(16 bytes @ 0xE0041FF0) -- CPU_ReadMem(16 bytes @ 0xE0041FE0)ROMTbl 0 [5]: FFF42000, CID: B105900D, PID: 101BB924 ETM-M3
 >0x0D TIF> >0x21 TIF>  returns 0x1BA01477 (0187ms, 0380ms total)
T1E04 000:499 JLINK_GetDLLVersion()  returns 60005 (0000ms, 0380ms total)
T1E04 000:499 JLINK_CORE_GetFound()  returns 0x30000FF (0000ms, 0380ms total)
T1E04 000:499 JLINK_GetDebugInfo(0x100) -- Value=0xE00FF000  returns 0x00 (0000ms, 0380ms total)
T1E04 000:502 JLINK_GetDebugInfo(0x100) -- Value=0xE00FF000  returns 0x00 (0000ms, 0380ms total)
T1E04 000:502 JLINK_GetDebugInfo(0x101) -- Value=0xE0041000  returns 0x00 (0000ms, 0380ms total)
T1E04 000:502 JLINK_GetDebugInfo(0x102) -- Value=0x00000000  returns 0x00 (0000ms, 0380ms total)
T1E04 000:502 JLINK_GetDebugInfo(0x103) -- Value=0xE0040000  returns 0x00 (0000ms, 0380ms total)
T1E04 000:502 JLINK_GetDebugInfo(0x104) -- Value=0xE0000000  returns 0x00 (0000ms, 0380ms total)
T1E04 000:502 JLINK_GetDebugInfo(0x105) -- Value=0xE0001000  returns 0x00 (0000ms, 0380ms total)
T1E04 000:502 JLINK_GetDebugInfo(0x106) -- Value=0xE0002000  returns 0x00 (0000ms, 0380ms total)
T1E04 000:502 JLINK_GetDebugInfo(0x107) -- Value=0xE000E000  returns 0x00 (0000ms, 0380ms total)
T1E04 000:502 JLINK_GetDebugInfo(0x10C) -- Value=0xE000EDF0  returns 0x00 (0000ms, 0380ms total)
T1E04 000:502 JLINK_ReadMemU32(0xE000ED00, 0x0001 Items, ...) -- CPU is running -- CPU_ReadMem(4 bytes @ 0xE000ED00) - Data: 31 C2 1F 41  returns 0x01 (0001ms, 0381ms total)
T1E04 000:503 JLINK_SetResetType(JLINKARM_RESET_TYPE_NORMAL)  returns JLINKARM_RESET_TYPE_NORMAL (0000ms, 0381ms total)
T1E04 000:503 JLINK_Reset() -- CPU is running -- CPU_WriteMem(4 bytes @ 0xE000EDF0) -- CPU is running -- CPU_WriteMem(4 bytes @ 0xE000EDFC) >0x35 TIF> -- CPU is running -- CPU_WriteMem(4 bytes @ 0xE000ED0C) -- CPU is running -- CPU_ReadMem(4 bytes @ 0xE000EDF0) -- CPU is running -- CPU_ReadMem(4 bytes @ 0xE000EDF0) -- CPU is running -- CPU_WriteMem(4 bytes @ 0xE000EDF0) -- CPU is running -- CPU_WriteMem(4 bytes @ 0xE000EDFC) -- CPU is running -- CPU_ReadMem(4 bytes @ 0xE000EDF0)
 -- CPU_WriteMem(4 bytes @ 0xE0002000) -- CPU_ReadMem(4 bytes @ 0xE000EDFC) -- CPU_ReadMem(4 bytes @ 0xE0001000) (0023ms, 0404ms total)
T1E04 000:526 JLINK_Halt()  returns 0x00 (0000ms, 0404ms total)
T1E04 000:526 JLINK_IsHalted()  returns TRUE (0000ms, 0404ms total)
T1E04 000:526 JLINK_ReadMemU32(0xE000EDF0, 0x0001 Items, ...) -- CPU_ReadMem(4 bytes @ 0xE000EDF0) - Data: 03 00 03 00  returns 0x01 (0001ms, 0405ms total)
T1E04 000:527 JLINK_WriteU32(0xE000EDF0, 0xA05F0003) -- CPU_WriteMem(4 bytes @ 0xE000EDF0)  returns 0x00 (0001ms, 0406ms total)
T1E04 000:528 JLINK_WriteU32(0xE000EDFC, 0x01000000) -- CPU_WriteMem(4 bytes @ 0xE000EDFC)  returns 0x00 (0001ms, 0407ms total)
T1E04 000:540 JLINK_GetHWStatus(...)  returns 0x00 (0002ms, 0409ms total)
T1E04 000:549 JLINK_GetNumBPUnits(Type = 0xFFFFFF00)  returns 0x06 (0000ms, 0409ms total)
T1E04 000:549 JLINK_GetNumBPUnits(Type = 0xF0)  returns 0x2000 (0000ms, 0409ms total)
T1E04 000:549 JLINK_GetNumWPUnits()  returns 0x04 (0000ms, 0409ms total)
T1E04 000:555 JLINK_GetSpeed()  returns 0xFA0 (0000ms, 0409ms total)
T1E04 000:558 JLINK_ReadMemU32(0xE000E004, 0x0001 Items, ...) -- CPU_ReadMem(4 bytes @ 0xE000E004) - Data: 01 00 00 00  returns 0x01 (0001ms, 0410ms total)
T1E04 000:559 JLINK_ReadMemU32(0xE000E004, 0x0001 Items, ...) -- CPU_ReadMem(4 bytes @ 0xE000E004) - Data: 01 00 00 00  returns 0x01 (0001ms, 0411ms total)
T1E04 000:560 JLINK_WriteMem(0xE0001000, 0x001C Bytes, ...) - Data: 01 00 00 00 00 00 00 00 00 00 00 00 00 00 00 00 ... -- CPU_WriteMem(28 bytes @ 0xE0001000)  returns 0x1C (0001ms, 0412ms total)
T1E04 000:561 JLINK_ReadMem (0xE0001000, 0x001C Bytes, ...) -- CPU_ReadMem(28 bytes @ 0xE0001000) - Data: 01 00 00 40 00 00 00 00 00 00 00 00 00 00 00 00 ...  returns 0x00 (0001ms, 0413ms total)
T1E04 000:562 JLINK_Halt()  returns 0x00 (0000ms, 0413ms total)
T1E04 000:562 JLINK_IsHalted()  returns TRUE (0000ms, 0413ms total)
T1E04 000:563 JLINK_WriteMem(0x20000000, 0x0164 Bytes, ...) - Data: 00 BE 0A E0 0D 78 2D 06 68 40 08 24 40 00 00 D3 ... -- CPU_WriteMem(356 bytes @ 0x20000000)  returns 0x164 (0003ms, 0416ms total)
T1E04 000:566 JLINK_WriteReg(R0, 0x08000000)  returns 0x00 (0000ms, 0416ms total)
T1E04 000:566 JLINK_WriteReg(R1, 0x00B71B00)  returns 0x00 (0000ms, 0416ms total)
T1E04 000:566 JLINK_WriteReg(R2, 0x00000001)  returns 0x00 (0000ms, 0416ms total)
T1E04 000:566 JLINK_WriteReg(R3, 0x00000000)  returns 0x00 (0000ms, 0416ms total)
T1E04 000:566 JLINK_WriteReg(R4, 0x00000000)  returns 0x00 (0000ms, 0416ms total)
T1E04 000:566 JLINK_WriteReg(R5, 0x00000000)  returns 0x00 (0000ms, 0416ms total)
T1E04 000:566 JLINK_WriteReg(R6, 0x00000000)  returns 0x00 (0000ms, 0416ms total)
T1E04 000:566 JLINK_WriteReg(R7, 0x00000000)  returns 0x00 (0000ms, 0416ms total)
T1E04 000:566 JLINK_WriteReg(R8, 0x00000000)  returns 0x00 (0000ms, 0416ms total)
T1E04 000:566 JLINK_WriteReg(R9, 0x20000160)  returns 0x00 (0000ms, 0416ms total)
T1E04 000:566 JLINK_WriteReg(R10, 0x00000000)  returns 0x00 (0000ms, 0416ms total)
T1E04 000:566 JLINK_WriteReg(R11, 0x00000000)  returns 0x00 (0000ms, 0416ms total)
T1E04 000:566 JLINK_WriteReg(R12, 0x00000000)  returns 0x00 (0000ms, 0416ms total)
T1E04 000:566 JLINK_WriteReg(R13 (SP), 0x20000800)  returns 0x00 (0000ms, 0416ms total)
T1E04 000:566 JLINK_WriteReg(R14, 0x20000001)  returns 0x00 (0000ms, 0416ms total)
T1E04 000:566 JLINK_WriteReg(R15 (PC), 0x20000038)  returns 0x00 (0000ms, 0416ms total)
T1E04 000:566 JLINK_WriteReg(XPSR, 0x01000000)  returns 0x00 (0000ms, 0416ms total)
T1E04 000:566 JLINK_WriteReg(MSP, 0x20000800)  returns 0x00 (0000ms, 0416ms total)
T1E04 000:566 JLINK_WriteReg(PSP, 0x20000800)  returns 0x00 (0000ms, 0416ms total)
T1E04 000:566 JLINK_WriteReg(CFBP, 0x00000000)  returns 0x00 (0000ms, 0416ms total)
T1E04 000:566 JLINK_SetBPEx(Addr = 0x20000000, Type = 0xFFFFFFF2) -- CPU_ReadMem(2 bytes @ 0x20000000)  returns 0x00000001 (0001ms, 0417ms total)
T1E04 000:567 JLINK_Go() -- CPU_WriteMem(2 bytes @ 0x20000000) -- CPU_ReadMem(4 bytes @ 0xE0001000) -- CPU_WriteMem(4 bytes @ 0xE0002008) -- CPU_WriteMem(4 bytes @ 0xE000200C) -- CPU_WriteMem(4 bytes @ 0xE0002010) -- CPU_WriteMem(4 bytes @ 0xE0002014) -- CPU_WriteMem(4 bytes @ 0xE0002018) -- CPU_WriteMem(4 bytes @ 0xE000201C) -- CPU_WriteMem(4 bytes @ 0xE0001004) (0007ms, 0424ms total)
T1E04 000:574 JLINK_IsHalted() -- CPU_ReadMem(2 bytes @ 0x20000000)  returns TRUE (0004ms, 0428ms total)
T1E04 000:578 JLINK_ReadReg(R15 (PC))  returns 0x20000000 (0000ms, 0424ms total)
T1E04 000:578 JLINK_ClrBPEx(BPHandle = 0x00000001)  returns 0x00 (0000ms, 0424ms total)
T1E04 000:578 JLINK_ReadReg(R0)  returns 0x00000000 (0000ms, 0424ms total)
T1E04 000:578 JLINK_WriteReg(R0, 0x08000000)  returns 0x00 (0000ms, 0424ms total)
T1E04 000:578 JLINK_WriteReg(R1, 0x00B71B00)  returns 0x00 (0000ms, 0424ms total)
T1E04 000:578 JLINK_WriteReg(R2, 0x00000001)  returns 0x00 (0000ms, 0424ms total)
T1E04 000:578 JLINK_WriteReg(R3, 0x00000000)  returns 0x00 (0000ms, 0424ms total)
T1E04 000:578 JLINK_WriteReg(R4, 0x00000000)  returns 0x00 (0000ms, 0424ms total)
T1E04 000:578 JLINK_WriteReg(R5, 0x00000000)  returns 0x00 (0000ms, 0424ms total)
T1E04 000:578 JLINK_WriteReg(R6, 0x00000000)  returns 0x00 (0000ms, 0424ms total)
T1E04 000:578 JLINK_WriteReg(R7, 0x00000000)  returns 0x00 (0000ms, 0424ms total)
T1E04 000:578 JLINK_WriteReg(R8, 0x00000000)  returns 0x00 (0000ms, 0424ms total)
T1E04 000:578 JLINK_WriteReg(R9, 0x20000160)  returns 0x00 (0000ms, 0424ms total)
T1E04 000:578 JLINK_WriteReg(R10, 0x00000000)  returns 0x00 (0000ms, 0424ms total)
T1E04 000:578 JLINK_WriteReg(R11, 0x00000000)  returns 0x00 (0000ms, 0424ms total)
T1E04 000:578 JLINK_WriteReg(R12, 0x00000000)  returns 0x00 (0000ms, 0424ms total)
T1E04 000:578 JLINK_WriteReg(R13 (SP), 0x20000800)  returns 0x00 (0000ms, 0424ms total)
T1E04 000:578 JLINK_WriteReg(R14, 0x20000001)  returns 0x00 (0000ms, 0424ms total)
T1E04 000:578 JLINK_WriteReg(R15 (PC), 0x2000007C)  returns 0x00 (0000ms, 0424ms total)
T1E04 000:578 JLINK_WriteReg(XPSR, 0x01000000)  returns 0x00 (0000ms, 0424ms total)
T1E04 000:578 JLINK_WriteReg(MSP, 0x20000800)  returns 0x00 (0000ms, 0424ms total)
T1E04 000:578 JLINK_WriteReg(PSP, 0x20000800)  returns 0x00 (0000ms, 0424ms total)
T1E04 000:578 JLINK_WriteReg(CFBP, 0x00000000)  returns 0x00 (0000ms, 0424ms total)
T1E04 000:578 JLINK_SetBPEx(Addr = 0x20000000, Type = 0xFFFFFFF2)  returns 0x00000002 (0000ms, 0424ms total)
T1E04 000:578 JLINK_Go() -- CPU_ReadMem(4 bytes @ 0xE0001000) (0004ms, 0428ms total)
T1E04 000:582 JLINK_IsHalted()  returns FALSE (0001ms, 0429ms total)
T1E04 000:616 JLINK_IsHalted() -- CPU_ReadMem(2 bytes @ 0x20000000)  returns TRUE (0004ms, 0432ms total)
T1E04 000:620 JLINK_ReadReg(R15 (PC))  returns 0x20000000 (0000ms, 0428ms total)
T1E04 000:620 JLINK_ClrBPEx(BPHandle = 0x00000002)  returns 0x00 (0000ms, 0428ms total)
T1E04 000:620 JLINK_ReadReg(R0)  returns 0x00000000 (0000ms, 0428ms total)
T1E04 000:671 JLINK_WriteReg(R0, 0x00000001)  returns 0x00 (0000ms, 0428ms total)
T1E04 000:671 JLINK_WriteReg(R1, 0x00B71B00)  returns 0x00 (0000ms, 0428ms total)
T1E04 000:671 JLINK_WriteReg(R2, 0x00000001)  returns 0x00 (0000ms, 0428ms total)
T1E04 000:671 JLINK_WriteReg(R3, 0x00000000)  returns 0x00 (0000ms, 0428ms total)
T1E04 000:671 JLINK_WriteReg(R4, 0x00000000)  returns 0x00 (0000ms, 0428ms total)
T1E04 000:671 JLINK_WriteReg(R5, 0x00000000)  returns 0x00 (0000ms, 0428ms total)
T1E04 000:671 JLINK_WriteReg(R6, 0x00000000)  returns 0x00 (0000ms, 0428ms total)
T1E04 000:671 JLINK_WriteReg(R7, 0x00000000)  returns 0x00 (0000ms, 0428ms total)
T1E04 000:671 JLINK_WriteReg(R8, 0x00000000)  returns 0x00 (0000ms, 0428ms total)
T1E04 000:671 JLINK_WriteReg(R9, 0x20000160)  returns 0x00 (0000ms, 0428ms total)
T1E04 000:671 JLINK_WriteReg(R10, 0x00000000)  returns 0x00 (0000ms, 0428ms total)
T1E04 000:671 JLINK_WriteReg(R11, 0x00000000)  returns 0x00 (0000ms, 0428ms total)
T1E04 000:671 JLINK_WriteReg(R12, 0x00000000)  returns 0x00 (0000ms, 0428ms total)
T1E04 000:671 JLINK_WriteReg(R13 (SP), 0x20000800)  returns 0x00 (0000ms, 0428ms total)
T1E04 000:671 JLINK_WriteReg(R14, 0x20000001)  returns 0x00 (0000ms, 0428ms total)
T1E04 000:671 JLINK_WriteReg(R15 (PC), 0x2000006A)  returns 0x00 (0000ms, 0428ms total)
T1E04 000:671 JLINK_WriteReg(XPSR, 0x01000000)  returns 0x00 (0000ms, 0428ms total)
T1E04 000:671 JLINK_WriteReg(MSP, 0x20000800)  returns 0x00 (0000ms, 0428ms total)
T1E04 000:671 JLINK_WriteReg(PSP, 0x20000800)  returns 0x00 (0000ms, 0428ms total)
T1E04 000:671 JLINK_WriteReg(CFBP, 0x00000000)  returns 0x00 (0001ms, 0429ms total)
T1E04 000:672 JLINK_SetBPEx(Addr = 0x20000000, Type = 0xFFFFFFF2)  returns 0x00000003 (0000ms, 0429ms total)
T1E04 000:672 JLINK_Go() -- CPU_ReadMem(4 bytes @ 0xE0001000) (0003ms, 0432ms total)
T1E04 000:675 JLINK_IsHalted() -- CPU_ReadMem(2 bytes @ 0x20000000)  returns TRUE (0004ms, 0436ms total)
T1E04 000:679 JLINK_ReadReg(R15 (PC))  returns 0x20000000 (0000ms, 0432ms total)
T1E04 000:679 JLINK_ClrBPEx(BPHandle = 0x00000003)  returns 0x00 (0000ms, 0432ms total)
T1E04 000:679 JLINK_ReadReg(R0)  returns 0x00000000 (0000ms, 0432ms total)
T1E04 000:688 JLINK_WriteMem(0x20000000, 0x0164 Bytes, ...) - Data: 00 BE 0A E0 0D 78 2D 06 68 40 08 24 40 00 00 D3 ... -- CPU_WriteMem(356 bytes @ 0x20000000)  returns 0x164 (0002ms, 0434ms total)
T1E04 000:690 JLINK_WriteReg(R0, 0x08000000)  returns 0x00 (0000ms, 0434ms total)
T1E04 000:690 JLINK_WriteReg(R1, 0x00B71B00)  returns 0x00 (0000ms, 0434ms total)
T1E04 000:690 JLINK_WriteReg(R2, 0x00000002)  returns 0x00 (0000ms, 0434ms total)
T1E04 000:690 JLINK_WriteReg(R3, 0x00000000)  returns 0x00 (0000ms, 0434ms total)
T1E04 000:690 JLINK_WriteReg(R4, 0x00000000)  returns 0x00 (0000ms, 0434ms total)
T1E04 000:690 JLINK_WriteReg(R5, 0x00000000)  returns 0x00 (0000ms, 0434ms total)
T1E04 000:690 JLINK_WriteReg(R6, 0x00000000)  returns 0x00 (0000ms, 0434ms total)
T1E04 000:690 JLINK_WriteReg(R7, 0x00000000)  returns 0x00 (0000ms, 0434ms total)
T1E04 000:690 JLINK_WriteReg(R8, 0x00000000)  returns 0x00 (0000ms, 0434ms total)
T1E04 000:690 JLINK_WriteReg(R9, 0x20000160)  returns 0x00 (0000ms, 0434ms total)
T1E04 000:690 JLINK_WriteReg(R10, 0x00000000)  returns 0x00 (0000ms, 0434ms total)
T1E04 000:690 JLINK_WriteReg(R11, 0x00000000)  returns 0x00 (0000ms, 0434ms total)
T1E04 000:690 JLINK_WriteReg(R12, 0x00000000)  returns 0x00 (0000ms, 0434ms total)
T1E04 000:690 JLINK_WriteReg(R13 (SP), 0x20000800)  returns 0x00 (0000ms, 0434ms total)
T1E04 000:690 JLINK_WriteReg(R14, 0x20000001)  returns 0x00 (0000ms, 0434ms total)
T1E04 000:690 JLINK_WriteReg(R15 (PC), 0x20000038)  returns 0x00 (0000ms, 0434ms total)
T1E04 000:690 JLINK_WriteReg(XPSR, 0x01000000)  returns 0x00 (0000ms, 0434ms total)
T1E04 000:690 JLINK_WriteReg(MSP, 0x20000800)  returns 0x00 (0000ms, 0434ms total)
T1E04 000:690 JLINK_WriteReg(PSP, 0x20000800)  returns 0x00 (0000ms, 0434ms total)
T1E04 000:690 JLINK_WriteReg(CFBP, 0x00000000)  returns 0x00 (0000ms, 0434ms total)
T1E04 000:690 JLINK_SetBPEx(Addr = 0x20000000, Type = 0xFFFFFFF2) -- CPU_ReadMem(2 bytes @ 0x20000000)  returns 0x00000004 (0002ms, 0436ms total)
T1E04 000:692 JLINK_Go() -- CPU_WriteMem(2 bytes @ 0x20000000) -- CPU_ReadMem(4 bytes @ 0xE0001000) (0004ms, 0440ms total)
T1E04 000:696 JLINK_IsHalted() -- CPU_ReadMem(2 bytes @ 0x20000000)  returns TRUE (0004ms, 0444ms total)
T1E04 000:700 JLINK_ReadReg(R15 (PC))  returns 0x20000000 (0000ms, 0440ms total)
T1E04 000:700 JLINK_ClrBPEx(BPHandle = 0x00000004)  returns 0x00 (0000ms, 0440ms total)
T1E04 000:700 JLINK_ReadReg(R0)  returns 0x00000000 (0000ms, 0440ms total)
T1E04 000:700 JLINK_WriteMem(0x20000164, 0x0400 Bytes, ...) - Data: 00 1F 00 20 65 01 00 08 75 4E 00 08 77 4E 00 08 ... -- CPU_WriteMem(1024 bytes @ 0x20000164)  returns 0x400 (0004ms, 0444ms total)
T1E04 000:705 JLINK_WriteReg(R0, 0x08000000)  returns 0x00 (0000ms, 0444ms total)
T1E04 000:705 JLINK_WriteReg(R1, 0x00000400)  returns 0x00 (0000ms, 0444ms total)
T1E04 000:705 JLINK_WriteReg(R2, 0x20000164)  returns 0x00 (0000ms, 0444ms total)
T1E04 000:705 JLINK_WriteReg(R3, 0x00000000)  returns 0x00 (0000ms, 0444ms total)
T1E04 000:705 JLINK_WriteReg(R4, 0x00000000)  returns 0x00 (0000ms, 0444ms total)
T1E04 000:705 JLINK_WriteReg(R5, 0x00000000)  returns 0x00 (0000ms, 0444ms total)
T1E04 000:705 JLINK_WriteReg(R6, 0x00000000)  returns 0x00 (0000ms, 0444ms total)
T1E04 000:705 JLINK_WriteReg(R7, 0x00000000)  returns 0x00 (0000ms, 0444ms total)
T1E04 000:705 JLINK_WriteReg(R8, 0x00000000)  returns 0x00 (0000ms, 0444ms total)
T1E04 000:705 JLINK_WriteReg(R9, 0x20000160)  returns 0x00 (0000ms, 0444ms total)
T1E04 000:705 JLINK_WriteReg(R10, 0x00000000)  returns 0x00 (0000ms, 0444ms total)
T1E04 000:705 JLINK_WriteReg(R11, 0x00000000)  returns 0x00 (0000ms, 0444ms total)
T1E04 000:705 JLINK_WriteReg(R12, 0x00000000)  returns 0x00 (0000ms, 0444ms total)
T1E04 000:705 JLINK_WriteReg(R13 (SP), 0x20000800)  returns 0x00 (0000ms, 0444ms total)
T1E04 000:705 JLINK_WriteReg(R14, 0x20000001)  returns 0x00 (0000ms, 0444ms total)
T1E04 000:705 JLINK_WriteReg(R15 (PC), 0x200000F4)  returns 0x00 (0000ms, 0444ms total)
T1E04 000:705 JLINK_WriteReg(XPSR, 0x01000000)  returns 0x00 (0000ms, 0444ms total)
T1E04 000:705 JLINK_WriteReg(MSP, 0x20000800)  returns 0x00 (0000ms, 0444ms total)
T1E04 000:705 JLINK_WriteReg(PSP, 0x20000800)  returns 0x00 (0000ms, 0444ms total)
T1E04 000:705 JLINK_WriteReg(CFBP, 0x00000000)  returns 0x00 (0000ms, 0444ms total)
T1E04 000:705 JLINK_SetBPEx(Addr = 0x20000000, Type = 0xFFFFFFF2)  returns 0x00000005 (0000ms, 0444ms total)
T1E04 000:705 JLINK_Go() -- CPU_ReadMem(4 bytes @ 0xE0001000) (0004ms, 0448ms total)
T1E04 000:709 JLINK_IsHalted()  returns FALSE (0001ms, 0449ms total)
T1E04 000:723 JLINK_IsHalted()  returns FALSE (0001ms, 0449ms total)
T1E04 000:725 JLINK_IsHalted()  returns FALSE (0001ms, 0449ms total)
T1E04 000:727 JLINK_IsHalted()  returns FALSE (0001ms, 0449ms total)
T1E04 000:729 JLINK_IsHalted()  returns FALSE (0001ms, 0449ms total)
T1E04 000:731 JLINK_IsHalted()  returns FALSE (0001ms, 0449ms total)
T1E04 000:733 JLINK_IsHalted()  returns FALSE (0001ms, 0449ms total)
T1E04 000:735 JLINK_IsHalted()  returns FALSE (0001ms, 0449ms total)
T1E04 000:737 JLINK_IsHalted()  returns FALSE (0001ms, 0449ms total)
T1E04 000:739 JLINK_IsHalted() -- CPU_ReadMem(2 bytes @ 0x20000000)  returns TRUE (0004ms, 0452ms total)
T1E04 000:743 JLINK_ReadReg(R15 (PC))  returns 0x20000000 (0000ms, 0448ms total)
T1E04 000:743 JLINK_ClrBPEx(BPHandle = 0x00000005)  returns 0x00 (0000ms, 0448ms total)
T1E04 000:743 JLINK_ReadReg(R0)  returns 0x00000000 (0000ms, 0448ms total)
T1E04 000:744 JLINK_WriteMem(0x20000164, 0x0400 Bytes, ...) - Data: 3A 48 00 78 B0 B1 00 20 38 49 08 70 06 F0 13 FE ... -- CPU_WriteMem(1024 bytes @ 0x20000164)  returns 0x400 (0004ms, 0452ms total)
T1E04 000:748 JLINK_WriteReg(R0, 0x08000400)  returns 0x00 (0000ms, 0452ms total)
T1E04 000:748 JLINK_WriteReg(R1, 0x00000400)  returns 0x00 (0000ms, 0452ms total)
T1E04 000:748 JLINK_WriteReg(R2, 0x20000164)  returns 0x00 (0000ms, 0452ms total)
T1E04 000:748 JLINK_WriteReg(R3, 0x00000000)  returns 0x00 (0000ms, 0452ms total)
T1E04 000:748 JLINK_WriteReg(R4, 0x00000000)  returns 0x00 (0000ms, 0452ms total)
T1E04 000:748 JLINK_WriteReg(R5, 0x00000000)  returns 0x00 (0000ms, 0452ms total)
T1E04 000:749 JLINK_WriteReg(R6, 0x00000000)  returns 0x00 (0000ms, 0453ms total)
T1E04 000:749 JLINK_WriteReg(R7, 0x00000000)  returns 0x00 (0000ms, 0453ms total)
T1E04 000:749 JLINK_WriteReg(R8, 0x00000000)  returns 0x00 (0000ms, 0453ms total)
T1E04 000:749 JLINK_WriteReg(R9, 0x20000160)  returns 0x00 (0000ms, 0453ms total)
T1E04 000:749 JLINK_WriteReg(R10, 0x00000000)  returns 0x00 (0000ms, 0453ms total)
T1E04 000:749 JLINK_WriteReg(R11, 0x00000000)  returns 0x00 (0000ms, 0453ms total)
T1E04 000:749 JLINK_WriteReg(R12, 0x00000000)  returns 0x00 (0000ms, 0453ms total)
T1E04 000:749 JLINK_WriteReg(R13 (SP), 0x20000800)  returns 0x00 (0000ms, 0453ms total)
T1E04 000:749 JLINK_WriteReg(R14, 0x20000001)  returns 0x00 (0000ms, 0453ms total)
T1E04 000:749 JLINK_WriteReg(R15 (PC), 0x200000F4)  returns 0x00 (0000ms, 0453ms total)
T1E04 000:749 JLINK_WriteReg(XPSR, 0x01000000)  returns 0x00 (0000ms, 0453ms total)
T1E04 000:749 JLINK_WriteReg(MSP, 0x20000800)  returns 0x00 (0000ms, 0453ms total)
T1E04 000:749 JLINK_WriteReg(PSP, 0x20000800)  returns 0x00 (0000ms, 0453ms total)
T1E04 000:749 JLINK_WriteReg(CFBP, 0x00000000)  returns 0x00 (0000ms, 0453ms total)
T1E04 000:749 JLINK_SetBPEx(Addr = 0x20000000, Type = 0xFFFFFFF2)  returns 0x00000006 (0000ms, 0453ms total)
T1E04 000:749 JLINK_Go() -- CPU_ReadMem(4 bytes @ 0xE0001000) (0003ms, 0456ms total)
T1E04 000:752 JLINK_IsHalted()  returns FALSE (0002ms, 0458ms total)
T1E04 000:755 JLINK_IsHalted()  returns FALSE (0001ms, 0457ms total)
T1E04 000:757 JLINK_IsHalted()  returns FALSE (0001ms, 0457ms total)
T1E04 000:759 JLINK_IsHalted()  returns FALSE (0001ms, 0457ms total)
T1E04 000:761 JLINK_IsHalted()  returns FALSE (0001ms, 0457ms total)
T1E04 000:763 JLINK_IsHalted()  returns FALSE (0000ms, 0456ms total)
T1E04 000:764 JLINK_IsHalted()  returns FALSE (0000ms, 0456ms total)
T1E04 000:765 JLINK_IsHalted()  returns FALSE (0000ms, 0456ms total)
T1E04 000:766 JLINK_IsHalted()  returns FALSE (0001ms, 0457ms total)
T1E04 000:768 JLINK_IsHalted()  returns FALSE (0000ms, 0456ms total)
T1E04 000:769 JLINK_IsHalted()  returns FALSE (0001ms, 0457ms total)
T1E04 000:771 JLINK_IsHalted()  returns FALSE (0000ms, 0456ms total)
T1E04 000:772 JLINK_IsHalted()  returns FALSE (0000ms, 0456ms total)
T1E04 000:773 JLINK_IsHalted()  returns FALSE (0001ms, 0457ms total)
T1E04 000:775 JLINK_IsHalted()  returns FALSE (0000ms, 0456ms total)
T1E04 000:776 JLINK_IsHalted()  returns FALSE (0001ms, 0457ms total)
T1E04 000:778 JLINK_IsHalted()  returns FALSE (0000ms, 0456ms total)
T1E04 000:779 JLINK_IsHalted()  returns FALSE (0000ms, 0456ms total)
T1E04 000:780 JLINK_IsHalted()  returns FALSE (0000ms, 0456ms total)
T1E04 000:781 JLINK_IsHalted()  returns FALSE (0001ms, 0457ms total)
T1E04 000:783 JLINK_IsHalted() -- CPU_ReadMem(2 bytes @ 0x20000000)  returns TRUE (0003ms, 0460ms total)
T1E04 000:786 JLINK_ReadReg(R15 (PC))  returns 0x20000000 (0000ms, 0457ms total)
T1E04 000:786 JLINK_ClrBPEx(BPHandle = 0x00000006)  returns 0x00 (0000ms, 0457ms total)
T1E04 000:786 JLINK_ReadReg(R0)  returns 0x00000000 (0000ms, 0457ms total)
T1E04 000:787 JLINK_WriteMem(0x20000164, 0x0400 Bytes, ...) - Data: 23 4B 9A 61 70 47 29 B1 21 4A D2 69 02 43 20 4B ... -- CPU_WriteMem(1024 bytes @ 0x20000164)  returns 0x400 (0004ms, 0461ms total)
T1E04 000:791 JLINK_WriteReg(R0, 0x08000800)  returns 0x00 (0000ms, 0461ms total)
T1E04 000:791 JLINK_WriteReg(R1, 0x00000400)  returns 0x00 (0000ms, 0461ms total)
T1E04 000:791 JLINK_WriteReg(R2, 0x20000164)  returns 0x00 (0000ms, 0461ms total)
T1E04 000:791 JLINK_WriteReg(R3, 0x00000000)  returns 0x00 (0000ms, 0461ms total)
T1E04 000:791 JLINK_WriteReg(R4, 0x00000000)  returns 0x00 (0000ms, 0461ms total)
T1E04 000:791 JLINK_WriteReg(R5, 0x00000000)  returns 0x00 (0000ms, 0461ms total)
T1E04 000:791 JLINK_WriteReg(R6, 0x00000000)  returns 0x00 (0000ms, 0461ms total)
T1E04 000:791 JLINK_WriteReg(R7, 0x00000000)  returns 0x00 (0000ms, 0461ms total)
T1E04 000:791 JLINK_WriteReg(R8, 0x00000000)  returns 0x00 (0000ms, 0461ms total)
T1E04 000:791 JLINK_WriteReg(R9, 0x20000160)  returns 0x00 (0000ms, 0461ms total)
T1E04 000:791 JLINK_WriteReg(R10, 0x00000000)  returns 0x00 (0000ms, 0461ms total)
T1E04 000:791 JLINK_WriteReg(R11, 0x00000000)  returns 0x00 (0000ms, 0461ms total)
T1E04 000:791 JLINK_WriteReg(R12, 0x00000000)  returns 0x00 (0001ms, 0462ms total)
T1E04 000:792 JLINK_WriteReg(R13 (SP), 0x20000800)  returns 0x00 (0000ms, 0462ms total)
T1E04 000:792 JLINK_WriteReg(R14, 0x20000001)  returns 0x00 (0000ms, 0462ms total)
T1E04 000:792 JLINK_WriteReg(R15 (PC), 0x200000F4)  returns 0x00 (0000ms, 0462ms total)
T1E04 000:792 JLINK_WriteReg(XPSR, 0x01000000)  returns 0x00 (0000ms, 0462ms total)
T1E04 000:792 JLINK_WriteReg(MSP, 0x20000800)  returns 0x00 (0000ms, 0462ms total)
T1E04 000:792 JLINK_WriteReg(PSP, 0x20000800)  returns 0x00 (0000ms, 0462ms total)
T1E04 000:792 JLINK_WriteReg(CFBP, 0x00000000)  returns 0x00 (0000ms, 0462ms total)
T1E04 000:792 JLINK_SetBPEx(Addr = 0x20000000, Type = 0xFFFFFFF2)  returns 0x00000007 (0000ms, 0462ms total)
T1E04 000:792 JLINK_Go() -- CPU_ReadMem(4 bytes @ 0xE0001000) (0003ms, 0465ms total)
T1E04 000:795 JLINK_IsHalted()  returns FALSE (0001ms, 0466ms total)
T1E04 000:799 JLINK_IsHalted()  returns FALSE (0001ms, 0466ms total)
T1E04 000:801 JLINK_IsHalted()  returns FALSE (0001ms, 0466ms total)
T1E04 000:803 JLINK_IsHalted()  returns FALSE (0001ms, 0466ms total)
T1E04 000:860 JLINK_IsHalted() -- CPU_ReadMem(2 bytes @ 0x20000000)  returns TRUE (0004ms, 0469ms total)
T1E04 000:864 JLINK_ReadReg(R15 (PC))  returns 0x20000000 (0000ms, 0465ms total)
T1E04 000:864 JLINK_ClrBPEx(BPHandle = 0x00000007)  returns 0x00 (0000ms, 0465ms total)
T1E04 000:864 JLINK_ReadReg(R0)  returns 0x00000000 (0000ms, 0465ms total)
T1E04 000:865 JLINK_WriteMem(0x20000164, 0x0400 Bytes, ...) - Data: 00 14 01 40 00 18 01 40 00 1C 01 40 00 20 01 40 ... -- CPU_WriteMem(1024 bytes @ 0x20000164)  returns 0x400 (0004ms, 0469ms total)
T1E04 000:869 JLINK_WriteReg(R0, 0x08000C00)  returns 0x00 (0000ms, 0469ms total)
T1E04 000:869 JLINK_WriteReg(R1, 0x00000400)  returns 0x00 (0000ms, 0469ms total)
T1E04 000:869 JLINK_WriteReg(R2, 0x20000164)  returns 0x00 (0000ms, 0469ms total)
T1E04 000:869 JLINK_WriteReg(R3, 0x00000000)  returns 0x00 (0000ms, 0469ms total)
T1E04 000:869 JLINK_WriteReg(R4, 0x00000000)  returns 0x00 (0000ms, 0469ms total)
T1E04 000:869 JLINK_WriteReg(R5, 0x00000000)  returns 0x00 (0000ms, 0469ms total)
T1E04 000:869 JLINK_WriteReg(R6, 0x00000000)  returns 0x00 (0000ms, 0469ms total)
T1E04 000:869 JLINK_WriteReg(R7, 0x00000000)  returns 0x00 (0000ms, 0469ms total)
T1E04 000:869 JLINK_WriteReg(R8, 0x00000000)  returns 0x00 (0000ms, 0469ms total)
T1E04 000:869 JLINK_WriteReg(R9, 0x20000160)  returns 0x00 (0000ms, 0469ms total)
T1E04 000:869 JLINK_WriteReg(R10, 0x00000000)  returns 0x00 (0000ms, 0469ms total)
T1E04 000:869 JLINK_WriteReg(R11, 0x00000000)  returns 0x00 (0000ms, 0469ms total)
T1E04 000:869 JLINK_WriteReg(R12, 0x00000000)  returns 0x00 (0000ms, 0469ms total)
T1E04 000:869 JLINK_WriteReg(R13 (SP), 0x20000800)  returns 0x00 (0000ms, 0469ms total)
T1E04 000:869 JLINK_WriteReg(R14, 0x20000001)  returns 0x00 (0000ms, 0469ms total)
T1E04 000:869 JLINK_WriteReg(R15 (PC), 0x200000F4)  returns 0x00 (0000ms, 0469ms total)
T1E04 000:869 JLINK_WriteReg(XPSR, 0x01000000)  returns 0x00 (0000ms, 0469ms total)
T1E04 000:869 JLINK_WriteReg(MSP, 0x20000800)  returns 0x00 (0000ms, 0469ms total)
T1E04 000:869 JLINK_WriteReg(PSP, 0x20000800)  returns 0x00 (0000ms, 0469ms total)
T1E04 000:869 JLINK_WriteReg(CFBP, 0x00000000)  returns 0x00 (0000ms, 0469ms total)
T1E04 000:869 JLINK_SetBPEx(Addr = 0x20000000, Type = 0xFFFFFFF2)  returns 0x00000008 (0000ms, 0469ms total)
T1E04 000:869 JLINK_Go() -- CPU_ReadMem(4 bytes @ 0xE0001000) (0003ms, 0472ms total)
T1E04 000:872 JLINK_IsHalted()  returns FALSE (0001ms, 0473ms total)
T1E04 000:880 JLINK_IsHalted()  returns FALSE (0001ms, 0473ms total)
T1E04 000:882 JLINK_IsHalted()  returns FALSE (0001ms, 0473ms total)
T1E04 000:884 JLINK_IsHalted()  returns FALSE (0001ms, 0473ms total)
T1E04 000:886 JLINK_IsHalted()  returns FALSE (0001ms, 0473ms total)
T1E04 000:888 JLINK_IsHalted()  returns FALSE (0001ms, 0473ms total)
T1E04 000:890 JLINK_IsHalted()  returns FALSE (0001ms, 0473ms total)
T1E04 000:892 JLINK_IsHalted()  returns FALSE (0001ms, 0473ms total)
T1E04 000:894 JLINK_IsHalted()  returns FALSE (0001ms, 0473ms total)
T1E04 000:898 JLINK_IsHalted()  returns FALSE (0001ms, 0473ms total)
T1E04 000:900 JLINK_IsHalted()  returns FALSE (0001ms, 0473ms total)
T1E04 000:902 JLINK_IsHalted()  returns FALSE (0001ms, 0473ms total)
T1E04 000:904 JLINK_IsHalted() -- CPU_ReadMem(2 bytes @ 0x20000000)  returns TRUE (0004ms, 0476ms total)
T1E04 000:908 JLINK_ReadReg(R15 (PC))  returns 0x20000000 (0000ms, 0472ms total)
T1E04 000:908 JLINK_ClrBPEx(BPHandle = 0x00000008)  returns 0x00 (0000ms, 0472ms total)
T1E04 000:908 JLINK_ReadReg(R0)  returns 0x00000000 (0000ms, 0472ms total)
T1E04 000:909 JLINK_WriteMem(0x20000164, 0x0400 Bytes, ...) - Data: 94 40 A3 B2 DC 43 04 80 10 BD 00 00 00 38 01 40 ... -- CPU_WriteMem(1024 bytes @ 0x20000164)  returns 0x400 (0003ms, 0475ms total)
T1E04 000:913 JLINK_WriteReg(R0, 0x08001000)  returns 0x00 (0000ms, 0475ms total)
T1E04 000:913 JLINK_WriteReg(R1, 0x00000400)  returns 0x00 (0000ms, 0475ms total)
T1E04 000:913 JLINK_WriteReg(R2, 0x20000164)  returns 0x00 (0000ms, 0475ms total)
T1E04 000:913 JLINK_WriteReg(R3, 0x00000000)  returns 0x00 (0000ms, 0475ms total)
T1E04 000:913 JLINK_WriteReg(R4, 0x00000000)  returns 0x00 (0000ms, 0475ms total)
T1E04 000:913 JLINK_WriteReg(R5, 0x00000000)  returns 0x00 (0000ms, 0475ms total)
T1E04 000:913 JLINK_WriteReg(R6, 0x00000000)  returns 0x00 (0000ms, 0475ms total)
T1E04 000:913 JLINK_WriteReg(R7, 0x00000000)  returns 0x00 (0000ms, 0475ms total)
T1E04 000:913 JLINK_WriteReg(R8, 0x00000000)  returns 0x00 (0000ms, 0475ms total)
T1E04 000:913 JLINK_WriteReg(R9, 0x20000160)  returns 0x00 (0000ms, 0475ms total)
T1E04 000:913 JLINK_WriteReg(R10, 0x00000000)  returns 0x00 (0000ms, 0475ms total)
T1E04 000:913 JLINK_WriteReg(R11, 0x00000000)  returns 0x00 (0000ms, 0475ms total)
T1E04 000:913 JLINK_WriteReg(R12, 0x00000000)  returns 0x00 (0000ms, 0475ms total)
T1E04 000:913 JLINK_WriteReg(R13 (SP), 0x20000800)  returns 0x00 (0000ms, 0475ms total)
T1E04 000:913 JLINK_WriteReg(R14, 0x20000001)  returns 0x00 (0000ms, 0475ms total)
T1E04 000:913 JLINK_WriteReg(R15 (PC), 0x200000F4)  returns 0x00 (0000ms, 0475ms total)
T1E04 000:913 JLINK_WriteReg(XPSR, 0x01000000)  returns 0x00 (0000ms, 0475ms total)
T1E04 000:913 JLINK_WriteReg(MSP, 0x20000800)  returns 0x00 (0000ms, 0475ms total)
T1E04 000:913 JLINK_WriteReg(PSP, 0x20000800)  returns 0x00 (0000ms, 0475ms total)
T1E04 000:913 JLINK_WriteReg(CFBP, 0x00000000)  returns 0x00 (0000ms, 0475ms total)
T1E04 000:913 JLINK_SetBPEx(Addr = 0x20000000, Type = 0xFFFFFFF2)  returns 0x00000009 (0000ms, 0475ms total)
T1E04 000:913 JLINK_Go() -- CPU_ReadMem(4 bytes @ 0xE0001000) (0002ms, 0477ms total)
T1E04 000:916 JLINK_IsHalted()  returns FALSE (0000ms, 0477ms total)
T1E04 000:920 JLINK_IsHalted()  returns FALSE (0001ms, 0478ms total)
T1E04 000:922 JLINK_IsHalted()  returns FALSE (0001ms, 0478ms total)
T1E04 000:924 JLINK_IsHalted()  returns FALSE (0001ms, 0478ms total)
T1E04 000:926 JLINK_IsHalted()  returns FALSE (0001ms, 0478ms total)
T1E04 000:928 JLINK_IsHalted()  returns FALSE (0000ms, 0477ms total)
T1E04 000:929 JLINK_IsHalted()  returns FALSE (0001ms, 0478ms total)
T1E04 000:931 JLINK_IsHalted()  returns FALSE (0000ms, 0477ms total)
T1E04 000:932 JLINK_IsHalted()  returns FALSE (0000ms, 0477ms total)
T1E04 000:933 JLINK_IsHalted()  returns FALSE (0000ms, 0477ms total)
T1E04 000:934 JLINK_IsHalted()  returns FALSE (0000ms, 0477ms total)
T1E04 000:935 JLINK_IsHalted()  returns FALSE (0000ms, 0477ms total)
T1E04 000:936 JLINK_IsHalted()  returns FALSE (0000ms, 0477ms total)
T1E04 000:937 JLINK_IsHalted()  returns FALSE (0000ms, 0477ms total)
T1E04 000:938 JLINK_IsHalted()  returns FALSE (0000ms, 0477ms total)
T1E04 000:939 JLINK_IsHalted()  returns FALSE (0000ms, 0477ms total)
T1E04 000:940 JLINK_IsHalted()  returns FALSE (0000ms, 0477ms total)
T1E04 000:941 JLINK_IsHalted()  returns FALSE (0000ms, 0477ms total)
T1E04 000:942 JLINK_IsHalted()  returns FALSE (0000ms, 0477ms total)
T1E04 000:943 JLINK_IsHalted()  returns FALSE (0000ms, 0477ms total)
T1E04 000:944 JLINK_IsHalted()  returns FALSE (0000ms, 0477ms total)
T1E04 000:945 JLINK_IsHalted()  returns FALSE (0000ms, 0477ms total)
T1E04 000:946 JLINK_IsHalted() -- CPU_ReadMem(2 bytes @ 0x20000000)  returns TRUE (0003ms, 0480ms total)
T1E04 000:949 JLINK_ReadReg(R15 (PC))  returns 0x20000000 (0000ms, 0477ms total)
T1E04 000:949 JLINK_ClrBPEx(BPHandle = 0x00000009)  returns 0x00 (0000ms, 0477ms total)
T1E04 000:949 JLINK_ReadReg(R0)  returns 0x00000000 (0000ms, 0477ms total)
T1E04 000:950 JLINK_WriteMem(0x20000164, 0x0400 Bytes, ...) - Data: 04 46 04 2C 3A D1 85 48 83 49 88 60 84 48 88 60 ... -- CPU_WriteMem(1024 bytes @ 0x20000164)  returns 0x400 (0004ms, 0481ms total)
T1E04 000:954 JLINK_WriteReg(R0, 0x08001400)  returns 0x00 (0000ms, 0481ms total)
T1E04 000:954 JLINK_WriteReg(R1, 0x00000400)  returns 0x00 (0000ms, 0481ms total)
T1E04 000:954 JLINK_WriteReg(R2, 0x20000164)  returns 0x00 (0000ms, 0481ms total)
T1E04 000:954 JLINK_WriteReg(R3, 0x00000000)  returns 0x00 (0000ms, 0481ms total)
T1E04 000:954 JLINK_WriteReg(R4, 0x00000000)  returns 0x00 (0000ms, 0481ms total)
T1E04 000:954 JLINK_WriteReg(R5, 0x00000000)  returns 0x00 (0000ms, 0481ms total)
T1E04 000:954 JLINK_WriteReg(R6, 0x00000000)  returns 0x00 (0000ms, 0481ms total)
T1E04 000:954 JLINK_WriteReg(R7, 0x00000000)  returns 0x00 (0000ms, 0481ms total)
T1E04 000:954 JLINK_WriteReg(R8, 0x00000000)  returns 0x00 (0000ms, 0481ms total)
T1E04 000:954 JLINK_WriteReg(R9, 0x20000160)  returns 0x00 (0000ms, 0481ms total)
T1E04 000:954 JLINK_WriteReg(R10, 0x00000000)  returns 0x00 (0000ms, 0481ms total)
T1E04 000:954 JLINK_WriteReg(R11, 0x00000000)  returns 0x00 (0000ms, 0481ms total)
T1E04 000:954 JLINK_WriteReg(R12, 0x00000000)  returns 0x00 (0000ms, 0481ms total)
T1E04 000:954 JLINK_WriteReg(R13 (SP), 0x20000800)  returns 0x00 (0000ms, 0481ms total)
T1E04 000:954 JLINK_WriteReg(R14, 0x20000001)  returns 0x00 (0000ms, 0481ms total)
T1E04 000:954 JLINK_WriteReg(R15 (PC), 0x200000F4)  returns 0x00 (0000ms, 0481ms total)
T1E04 000:954 JLINK_WriteReg(XPSR, 0x01000000)  returns 0x00 (0000ms, 0481ms total)
T1E04 000:954 JLINK_WriteReg(MSP, 0x20000800)  returns 0x00 (0000ms, 0481ms total)
T1E04 000:954 JLINK_WriteReg(PSP, 0x20000800)  returns 0x00 (0000ms, 0481ms total)
T1E04 000:954 JLINK_WriteReg(CFBP, 0x00000000)  returns 0x00 (0000ms, 0481ms total)
T1E04 000:954 JLINK_SetBPEx(Addr = 0x20000000, Type = 0xFFFFFFF2)  returns 0x0000000A (0000ms, 0481ms total)
T1E04 000:954 JLINK_Go() -- CPU_ReadMem(4 bytes @ 0xE0001000) (0003ms, 0484ms total)
T1E04 000:957 JLINK_IsHalted()  returns FALSE (0001ms, 0485ms total)
T1E04 000:959 JLINK_IsHalted()  returns FALSE (0001ms, 0485ms total)
T1E04 000:961 JLINK_IsHalted()  returns FALSE (0001ms, 0485ms total)
T1E04 000:963 JLINK_IsHalted()  returns FALSE (0001ms, 0485ms total)
T1E04 000:965 JLINK_IsHalted()  returns FALSE (0000ms, 0484ms total)
T1E04 000:966 JLINK_IsHalted()  returns FALSE (0001ms, 0485ms total)
T1E04 000:968 JLINK_IsHalted()  returns FALSE (0001ms, 0485ms total)
T1E04 000:970 JLINK_IsHalted()  returns FALSE (0000ms, 0484ms total)
T1E04 000:971 JLINK_IsHalted()  returns FALSE (0001ms, 0485ms total)
T1E04 000:973 JLINK_IsHalted()  returns FALSE (0001ms, 0485ms total)
T1E04 000:975 JLINK_IsHalted()  returns FALSE (0001ms, 0485ms total)
T1E04 000:977 JLINK_IsHalted()  returns FALSE (0001ms, 0485ms total)
T1E04 000:979 JLINK_IsHalted()  returns FALSE (0000ms, 0484ms total)
T1E04 000:980 JLINK_IsHalted()  returns FALSE (0000ms, 0484ms total)
T1E04 000:981 JLINK_IsHalted()  returns FALSE (0001ms, 0485ms total)
T1E04 000:983 JLINK_IsHalted()  returns FALSE (0000ms, 0484ms total)
T1E04 000:984 JLINK_IsHalted()  returns FALSE (0000ms, 0484ms total)
T1E04 000:985 JLINK_IsHalted()  returns FALSE (0000ms, 0484ms total)
T1E04 000:986 JLINK_IsHalted()  returns FALSE (0000ms, 0484ms total)
T1E04 000:987 JLINK_IsHalted() -- CPU_ReadMem(2 bytes @ 0x20000000)  returns TRUE (0004ms, 0488ms total)
T1E04 000:991 JLINK_ReadReg(R15 (PC))  returns 0x20000000 (0000ms, 0484ms total)
T1E04 000:991 JLINK_ClrBPEx(BPHandle = 0x0000000A)  returns 0x00 (0000ms, 0484ms total)
T1E04 000:991 JLINK_ReadReg(R0)  returns 0x00000000 (0000ms, 0484ms total)
T1E04 000:992 JLINK_WriteMem(0x20000164, 0x0400 Bytes, ...) - Data: FF F7 1B F8 10 BD 2D E9 F0 43 85 B0 04 46 0D 46 ... -- CPU_WriteMem(1024 bytes @ 0x20000164)  returns 0x400 (0004ms, 0488ms total)
T1E04 000:996 JLINK_WriteReg(R0, 0x08001800)  returns 0x00 (0000ms, 0488ms total)
T1E04 000:996 JLINK_WriteReg(R1, 0x00000400)  returns 0x00 (0000ms, 0488ms total)
T1E04 000:996 JLINK_WriteReg(R2, 0x20000164)  returns 0x00 (0000ms, 0488ms total)
T1E04 000:996 JLINK_WriteReg(R3, 0x00000000)  returns 0x00 (0000ms, 0488ms total)
T1E04 000:996 JLINK_WriteReg(R4, 0x00000000)  returns 0x00 (0000ms, 0488ms total)
T1E04 000:996 JLINK_WriteReg(R5, 0x00000000)  returns 0x00 (0000ms, 0488ms total)
T1E04 000:996 JLINK_WriteReg(R6, 0x00000000)  returns 0x00 (0000ms, 0488ms total)
T1E04 000:996 JLINK_WriteReg(R7, 0x00000000)  returns 0x00 (0000ms, 0488ms total)
T1E04 000:996 JLINK_WriteReg(R8, 0x00000000)  returns 0x00 (0000ms, 0488ms total)
T1E04 000:996 JLINK_WriteReg(R9, 0x20000160)  returns 0x00 (0000ms, 0488ms total)
T1E04 000:996 JLINK_WriteReg(R10, 0x00000000)  returns 0x00 (0000ms, 0488ms total)
T1E04 000:996 JLINK_WriteReg(R11, 0x00000000)  returns 0x00 (0000ms, 0488ms total)
T1E04 000:996 JLINK_WriteReg(R12, 0x00000000)  returns 0x00 (0000ms, 0488ms total)
T1E04 000:996 JLINK_WriteReg(R13 (SP), 0x20000800)  returns 0x00 (0000ms, 0488ms total)
T1E04 000:996 JLINK_WriteReg(R14, 0x20000001)  returns 0x00 (0000ms, 0488ms total)
T1E04 000:996 JLINK_WriteReg(R15 (PC), 0x200000F4)  returns 0x00 (0000ms, 0488ms total)
T1E04 000:996 JLINK_WriteReg(XPSR, 0x01000000)  returns 0x00 (0000ms, 0488ms total)
T1E04 000:996 JLINK_WriteReg(MSP, 0x20000800)  returns 0x00 (0000ms, 0488ms total)
T1E04 000:996 JLINK_WriteReg(PSP, 0x20000800)  returns 0x00 (0000ms, 0488ms total)
T1E04 000:996 JLINK_WriteReg(CFBP, 0x00000000)  returns 0x00 (0000ms, 0488ms total)
T1E04 000:996 JLINK_SetBPEx(Addr = 0x20000000, Type = 0xFFFFFFF2)  returns 0x0000000B (0000ms, 0488ms total)
T1E04 000:996 JLINK_Go() -- CPU_ReadMem(4 bytes @ 0xE0001000) (0003ms, 0491ms total)
T1E04 000:999 JLINK_IsHalted()  returns FALSE (0001ms, 0492ms total)
T1E04 001:001 JLINK_IsHalted()  returns FALSE (0001ms, 0492ms total)
T1E04 001:006 JLINK_IsHalted()  returns FALSE (0001ms, 0492ms total)
T1E04 001:008 JLINK_IsHalted()  returns FALSE (0001ms, 0492ms total)
T1E04 001:010 JLINK_IsHalted()  returns FALSE (0000ms, 0492ms total)
T1E04 001:011 JLINK_IsHalted()  returns FALSE (0001ms, 0493ms total)
T1E04 001:013 JLINK_IsHalted()  returns FALSE (0001ms, 0493ms total)
T1E04 001:015 JLINK_IsHalted()  returns FALSE (0000ms, 0492ms total)
T1E04 001:016 JLINK_IsHalted()  returns FALSE (0000ms, 0492ms total)
T1E04 001:017 JLINK_IsHalted()  returns FALSE (0001ms, 0493ms total)
T1E04 001:019 JLINK_IsHalted()  returns FALSE (0000ms, 0492ms total)
T1E04 001:020 JLINK_IsHalted()  returns FALSE (0000ms, 0492ms total)
T1E04 001:021 JLINK_IsHalted()  returns FALSE (0000ms, 0492ms total)
T1E04 001:022 JLINK_IsHalted()  returns FALSE (0000ms, 0492ms total)
T1E04 001:023 JLINK_IsHalted()  returns FALSE (0000ms, 0492ms total)
T1E04 001:024 JLINK_IsHalted()  returns FALSE (0000ms, 0492ms total)
T1E04 001:025 JLINK_IsHalted()  returns FALSE (0000ms, 0492ms total)
T1E04 001:026 JLINK_IsHalted()  returns FALSE (0001ms, 0493ms total)
T1E04 001:028 JLINK_IsHalted()  returns FALSE (0000ms, 0492ms total)
T1E04 001:029 JLINK_IsHalted() -- CPU_ReadMem(2 bytes @ 0x20000000)  returns TRUE (0003ms, 0495ms total)
T1E04 001:032 JLINK_ReadReg(R15 (PC))  returns 0x20000000 (0000ms, 0492ms total)
T1E04 001:032 JLINK_ClrBPEx(BPHandle = 0x0000000B)  returns 0x00 (0000ms, 0492ms total)
T1E04 001:032 JLINK_ReadReg(R0)  returns 0x00000000 (0000ms, 0492ms total)
T1E04 001:033 JLINK_WriteMem(0x20000164, 0x0400 Bytes, ...) - Data: 1C FE 00 21 01 20 FE F7 18 FE B8 E0 F3 48 84 42 ... -- CPU_WriteMem(1024 bytes @ 0x20000164)  returns 0x400 (0004ms, 0496ms total)
T1E04 001:037 JLINK_WriteReg(R0, 0x08001C00)  returns 0x00 (0000ms, 0496ms total)
T1E04 001:037 JLINK_WriteReg(R1, 0x00000400)  returns 0x00 (0000ms, 0496ms total)
T1E04 001:037 JLINK_WriteReg(R2, 0x20000164)  returns 0x00 (0000ms, 0496ms total)
T1E04 001:037 JLINK_WriteReg(R3, 0x00000000)  returns 0x00 (0000ms, 0496ms total)
T1E04 001:037 JLINK_WriteReg(R4, 0x00000000)  returns 0x00 (0000ms, 0496ms total)
T1E04 001:037 JLINK_WriteReg(R5, 0x00000000)  returns 0x00 (0000ms, 0496ms total)
T1E04 001:037 JLINK_WriteReg(R6, 0x00000000)  returns 0x00 (0000ms, 0496ms total)
T1E04 001:037 JLINK_WriteReg(R7, 0x00000000)  returns 0x00 (0000ms, 0496ms total)
T1E04 001:037 JLINK_WriteReg(R8, 0x00000000)  returns 0x00 (0000ms, 0496ms total)
T1E04 001:037 JLINK_WriteReg(R9, 0x20000160)  returns 0x00 (0001ms, 0497ms total)
T1E04 001:038 JLINK_WriteReg(R10, 0x00000000)  returns 0x00 (0000ms, 0497ms total)
T1E04 001:038 JLINK_WriteReg(R11, 0x00000000)  returns 0x00 (0000ms, 0497ms total)
T1E04 001:038 JLINK_WriteReg(R12, 0x00000000)  returns 0x00 (0000ms, 0497ms total)
T1E04 001:038 JLINK_WriteReg(R13 (SP), 0x20000800)  returns 0x00 (0000ms, 0497ms total)
T1E04 001:038 JLINK_WriteReg(R14, 0x20000001)  returns 0x00 (0000ms, 0497ms total)
T1E04 001:038 JLINK_WriteReg(R15 (PC), 0x200000F4)  returns 0x00 (0000ms, 0497ms total)
T1E04 001:038 JLINK_WriteReg(XPSR, 0x01000000)  returns 0x00 (0000ms, 0497ms total)
T1E04 001:038 JLINK_WriteReg(MSP, 0x20000800)  returns 0x00 (0000ms, 0497ms total)
T1E04 001:038 JLINK_WriteReg(PSP, 0x20000800)  returns 0x00 (0000ms, 0497ms total)
T1E04 001:038 JLINK_WriteReg(CFBP, 0x00000000)  returns 0x00 (0000ms, 0497ms total)
T1E04 001:038 JLINK_SetBPEx(Addr = 0x20000000, Type = 0xFFFFFFF2)  returns 0x0000000C (0000ms, 0497ms total)
T1E04 001:038 JLINK_Go() -- CPU_ReadMem(4 bytes @ 0xE0001000) (0003ms, 0500ms total)
T1E04 001:041 JLINK_IsHalted()  returns FALSE (0001ms, 0501ms total)
T1E04 001:043 JLINK_IsHalted()  returns FALSE (0000ms, 0500ms total)
T1E04 001:044 JLINK_IsHalted()  returns FALSE (0000ms, 0500ms total)
T1E04 001:045 JLINK_IsHalted()  returns FALSE (0000ms, 0500ms total)
T1E04 001:046 JLINK_IsHalted()  returns FALSE (0000ms, 0500ms total)
T1E04 001:047 JLINK_IsHalted()  returns FALSE (0000ms, 0500ms total)
T1E04 001:048 JLINK_IsHalted()  returns FALSE (0000ms, 0500ms total)
T1E04 001:049 JLINK_IsHalted()  returns FALSE (0001ms, 0501ms total)
T1E04 001:051 JLINK_IsHalted()  returns FALSE (0001ms, 0501ms total)
T1E04 001:053 JLINK_IsHalted()  returns FALSE (0000ms, 0500ms total)
T1E04 001:054 JLINK_IsHalted()  returns FALSE (0001ms, 0501ms total)
T1E04 001:056 JLINK_IsHalted()  returns FALSE (0001ms, 0501ms total)
T1E04 001:058 JLINK_IsHalted()  returns FALSE (0001ms, 0501ms total)
T1E04 001:060 JLINK_IsHalted()  returns FALSE (0000ms, 0500ms total)
T1E04 001:061 JLINK_IsHalted()  returns FALSE (0001ms, 0501ms total)
T1E04 001:063 JLINK_IsHalted()  returns FALSE (0000ms, 0500ms total)
T1E04 001:064 JLINK_IsHalted()  returns FALSE (0000ms, 0500ms total)
T1E04 001:065 JLINK_IsHalted()  returns FALSE (0001ms, 0501ms total)
T1E04 001:067 JLINK_IsHalted()  returns FALSE (0001ms, 0501ms total)
T1E04 001:069 JLINK_IsHalted()  returns FALSE (0000ms, 0500ms total)
T1E04 001:070 JLINK_IsHalted()  returns FALSE (0001ms, 0501ms total)
T1E04 001:072 JLINK_IsHalted() -- CPU_ReadMem(2 bytes @ 0x20000000)  returns TRUE (0003ms, 0503ms total)
T1E04 001:075 JLINK_ReadReg(R15 (PC))  returns 0x20000000 (0000ms, 0500ms total)
T1E04 001:075 JLINK_ClrBPEx(BPHandle = 0x0000000C)  returns 0x00 (0000ms, 0500ms total)
T1E04 001:075 JLINK_ReadReg(R0)  returns 0x00000000 (0000ms, 0500ms total)
T1E04 001:076 JLINK_WriteMem(0x20000164, 0x0400 Bytes, ...) - Data: 00 18 00 40 00 1C 00 40 00 20 00 40 00 40 01 40 ... -- CPU_WriteMem(1024 bytes @ 0x20000164)  returns 0x400 (0004ms, 0504ms total)
T1E04 001:080 JLINK_WriteReg(R0, 0x08002000)  returns 0x00 (0000ms, 0504ms total)
T1E04 001:080 JLINK_WriteReg(R1, 0x00000400)  returns 0x00 (0000ms, 0504ms total)
T1E04 001:080 JLINK_WriteReg(R2, 0x20000164)  returns 0x00 (0000ms, 0504ms total)
T1E04 001:080 JLINK_WriteReg(R3, 0x00000000)  returns 0x00 (0000ms, 0504ms total)
T1E04 001:080 JLINK_WriteReg(R4, 0x00000000)  returns 0x00 (0000ms, 0504ms total)
T1E04 001:080 JLINK_WriteReg(R5, 0x00000000)  returns 0x00 (0000ms, 0504ms total)
T1E04 001:080 JLINK_WriteReg(R6, 0x00000000)  returns 0x00 (0000ms, 0504ms total)
T1E04 001:080 JLINK_WriteReg(R7, 0x00000000)  returns 0x00 (0000ms, 0504ms total)
T1E04 001:080 JLINK_WriteReg(R8, 0x00000000)  returns 0x00 (0000ms, 0504ms total)
T1E04 001:080 JLINK_WriteReg(R9, 0x20000160)  returns 0x00 (0000ms, 0504ms total)
T1E04 001:080 JLINK_WriteReg(R10, 0x00000000)  returns 0x00 (0000ms, 0504ms total)
T1E04 001:080 JLINK_WriteReg(R11, 0x00000000)  returns 0x00 (0000ms, 0504ms total)
T1E04 001:080 JLINK_WriteReg(R12, 0x00000000)  returns 0x00 (0000ms, 0504ms total)
T1E04 001:081 JLINK_WriteReg(R13 (SP), 0x20000800)  returns 0x00 (0000ms, 0504ms total)
T1E04 001:081 JLINK_WriteReg(R14, 0x20000001)  returns 0x00 (0000ms, 0504ms total)
T1E04 001:081 JLINK_WriteReg(R15 (PC), 0x200000F4)  returns 0x00 (0000ms, 0504ms total)
T1E04 001:081 JLINK_WriteReg(XPSR, 0x01000000)  returns 0x00 (0000ms, 0504ms total)
T1E04 001:081 JLINK_WriteReg(MSP, 0x20000800)  returns 0x00 (0000ms, 0504ms total)
T1E04 001:081 JLINK_WriteReg(PSP, 0x20000800)  returns 0x00 (0000ms, 0504ms total)
T1E04 001:081 JLINK_WriteReg(CFBP, 0x00000000)  returns 0x00 (0000ms, 0504ms total)
T1E04 001:081 JLINK_SetBPEx(Addr = 0x20000000, Type = 0xFFFFFFF2)  returns 0x0000000D (0000ms, 0504ms total)
T1E04 001:081 JLINK_Go() -- CPU_ReadMem(4 bytes @ 0xE0001000) (0003ms, 0507ms total)
T1E04 001:084 JLINK_IsHalted()  returns FALSE (0001ms, 0508ms total)
T1E04 001:086 JLINK_IsHalted()  returns FALSE (0000ms, 0507ms total)
T1E04 001:087 JLINK_IsHalted()  returns FALSE (0000ms, 0507ms total)
T1E04 001:088 JLINK_IsHalted()  returns FALSE (0000ms, 0507ms total)
T1E04 001:089 JLINK_IsHalted()  returns FALSE (0000ms, 0507ms total)
T1E04 001:090 JLINK_IsHalted()  returns FALSE (0000ms, 0507ms total)
T1E04 001:091 JLINK_IsHalted()  returns FALSE (0000ms, 0507ms total)
T1E04 001:092 JLINK_IsHalted()  returns FALSE (0000ms, 0507ms total)
T1E04 001:093 JLINK_IsHalted()  returns FALSE (0000ms, 0507ms total)
T1E04 001:094 JLINK_IsHalted()  returns FALSE (0000ms, 0507ms total)
T1E04 001:095 JLINK_IsHalted()  returns FALSE (0000ms, 0507ms total)
T1E04 001:096 JLINK_IsHalted()  returns FALSE (0000ms, 0507ms total)
T1E04 001:097 JLINK_IsHalted()  returns FALSE (0000ms, 0507ms total)
T1E04 001:098 JLINK_IsHalted()  returns FALSE (0000ms, 0507ms total)
T1E04 001:099 JLINK_IsHalted()  returns FALSE (0000ms, 0507ms total)
T1E04 001:100 JLINK_IsHalted()  returns FALSE (0000ms, 0507ms total)
T1E04 001:101 JLINK_IsHalted()  returns FALSE (0000ms, 0507ms total)
T1E04 001:102 JLINK_IsHalted()  returns FALSE (0000ms, 0507ms total)
T1E04 001:103 JLINK_IsHalted()  returns FALSE (0000ms, 0507ms total)
T1E04 001:104 JLINK_IsHalted()  returns FALSE (0000ms, 0507ms total)
T1E04 001:105 JLINK_IsHalted()  returns FALSE (0000ms, 0507ms total)
T1E04 001:106 JLINK_IsHalted()  returns FALSE (0000ms, 0507ms total)
T1E04 001:107 JLINK_IsHalted()  returns FALSE (0000ms, 0507ms total)
T1E04 001:108 JLINK_IsHalted()  returns FALSE (0000ms, 0507ms total)
T1E04 001:109 JLINK_IsHalted()  returns FALSE (0000ms, 0507ms total)
T1E04 001:110 JLINK_IsHalted()  returns FALSE (0000ms, 0507ms total)
T1E04 001:115 JLINK_IsHalted() -- CPU_ReadMem(2 bytes @ 0x20000000)  returns TRUE (0004ms, 0511ms total)
T1E04 001:119 JLINK_ReadReg(R15 (PC))  returns 0x20000000 (0000ms, 0507ms total)
T1E04 001:119 JLINK_ClrBPEx(BPHandle = 0x0000000D)  returns 0x00 (0000ms, 0507ms total)
T1E04 001:119 JLINK_ReadReg(R0)  returns 0x00000000 (0000ms, 0507ms total)
